
**** 04/05/12 11:05:59 ******* PSpice 10.3.0 (Jan 2004) ******* ID# 1111111111 
 * SPICE MODEL INCLUDE FILE


 ****     CIRCUIT DESCRIPTION


******************************************************************************



*

*zener diode subcircuit
.subckt zener_diode 1 4
Dforward 1 2 Dideal
Dreverse 4 1 1mA_diode
VZ0 2 3 DC 17V
Rz 3 4 10
*diode model statements
.model 1mA_diode D (Is=100pA n=1.679)
.ends zener_diode

** Main Circuit **
* ac line voltage
Vac 1 0 sin(0 169.7V 60Hz)
Rp 1 2 1

*Transformer
Lp 2 0 70mH
Ls 3 0 1mH
K12 Lp Ls .999999

*Rectifier diode
D1 3 4 D1N4148

*Filter and Voltage Regulator
C 4 0 100u
R1 4 5 5000
XZ1 5 0 zener_diode

*Amplifier

*Signal Components
Isig 6 5 DC 1m
Vtr 6 0 AC 1 sin(0 .05V 100 0 0)
Cc1 6 7 4.5u

*Gate Resistances
Rg1 5 7 120k
Rg2 7 0 50k

*Drain Components
Rd 5 8 26k

*NMOS Source Components
Rs 9 0 4600
Cs 9 0 15.7u

*NMOS Amplifier
M1 8 7 9 9 nnMOS L=10u W=10u

*Load Components
Rl 8 0 1e6
Cl 8 0 10p

* CD4007 Discrete NMOS & PMOS
.model nnMOS NMOS (LEVEL=2 VTo=1.4 Kp=.6m LAMBDA=0.005)

* Ideal Diode Model
.model Dideal D   (Is=100pA n=0.01 )
*
* D14148 Rectifier Diode
.model D1N4148  D (Is=5.84n N=1.94 Rs=.7017 Ikf=44.17m Xti=3 Eg=1.11 Cjo=.95p
+                  M=.55 Vj=.75 Fc=.5 Isr=11.07n Nr=2.088 Bv=100 Ibv=100u Tt=11.07n)
*
* CD4007 Discrete NMOS & PMOS

*Analysis Requests
.OPTIONS ITL5 = 0
.TRAN .01ms 1s 0 .01ms UIC
.AC DEC 10 .01 10Meg

*.plot TRAN V(5,0)
.PROBE
.end

**** 04/05/12 11:05:59 ******* PSpice 10.3.0 (Jan 2004) ******* ID# 1111111111 
 * SPICE MODEL INCLUDE FILE


 ****     Diode MODEL PARAMETERS


******************************************************************************




               Dideal          D1N4148         XZ1.1mA_diode   
          IS  100.000000E-12    5.840000E-09  100.000000E-12 
           N     .01            1.94            1.679        
         ISR                   11.070000E-09                 
          NR                    2.088                        
         IKF                     .04417                      
          BV                  100                            
         IBV                  100.000000E-06                 
          RS                     .7017                       
          TT                   11.070000E-09                 
         CJO                  950.000000E-15                 
          VJ                     .75                         
           M                     .55                         


**** 04/05/12 11:05:59 ******* PSpice 10.3.0 (Jan 2004) ******* ID# 1111111111 
 * SPICE MODEL INCLUDE FILE


 ****     MOSFET MODEL PARAMETERS


******************************************************************************




               nnMOS           
               NMOS            
       LEVEL    2            
           L  100.000000E-06 
           W  100.000000E-06 
         VTO    1.4          
          KP  600.000000E-06 
       GAMMA    0            
         PHI     .6          
      LAMBDA    5.000000E-03 
          IS   10.000000E-15 
          JS    0            
          PB     .8          
        PBSW     .8          
          CJ    0            
        CJSW    0            
        CGSO    0            
        CGDO    0            
        CGBO    0            
         TOX  100.000000E-09 
          XJ    0            
       UCRIT   10.000000E+03 
      DIOMOD    1            
         VFB    0            
        LETA    0            
        WETA    0            
          U0    0            
        TEMP    0            
         VDD    0            
       XPART    0            


**** 04/05/12 11:05:59 ******* PSpice 10.3.0 (Jan 2004) ******* ID# 1111111111 
 * SPICE MODEL INCLUDE FILE


 ****     SMALL SIGNAL BIAS SOLUTION       TEMPERATURE =   27.000 DEG C


******************************************************************************



 NODE   VOLTAGE     NODE   VOLTAGE     NODE   VOLTAGE     NODE   VOLTAGE


(    1)    0.0000  (    2)    0.0000  (    3)    0.0000  (    4)   17.0080      

(    5)   17.0080  (    6)    0.0000  (    7)    5.0023  (    8)    3.8363      

(    9)    2.3127  (XZ1.2)   17.0040  (XZ1.3)     .0039  




    VOLTAGE SOURCE CURRENTS
    NAME         CURRENT

    Vac          0.000E+00
    Vtr         -1.000E-03
    XZ1.VZ0      3.933E-04

    TOTAL POWER DISSIPATION  -6.69E-03  WATTS



          JOB CONCLUDED

**** 04/05/12 11:05:59 ******* PSpice 10.3.0 (Jan 2004) ******* ID# 1111111111 
 * SPICE MODEL INCLUDE FILE


 ****     JOB STATISTICS SUMMARY


******************************************************************************



  Total job time (using Solver 1)   =        5.62
