
**** 04/04/12 13:08:51 ******* PSpice 10.3.0 (Jan 2004) ******* ID# 1111111111 
 *Amplifier


 ****     CIRCUIT DESCRIPTION


******************************************************************************




*Signals
Vdd 1 0 DC 17V
*Isig 1 2 DC 1mA
Vtr 2 0 AC 1 sin(0 .05V 10000)
Cc1 2 3 4.5u

*Gate Resistances
Rg1 1 3 120k
Rg2 3 0 50k

*Drain 
Rd 1 4 26k

*Source
Rs 5 0 4600
Cs 5 0 15.7u

*NMOS
M1 4 3 5 5 nnMOS L=10u W=10u

*Load
Rl 4 0 1e6
Cl 4 0 10p

* CD4007 Discrete NMOS & PMOS
.model nnMOS NMOS (LEVEL=2 VTo=1.4 Kp=.6m LAMBDA=0.005)
.model ppMOS PMOS (LEVEL=2 VTo=-1.0 KP=.6m LAMBDA=0.01)
*Analysis Requests
*.OPTIONS ITL5 = 0
.TRAN .5ms 100ms
.AC DEC 10 .01 10Meg

.plot TRAN V(4,0)
.PROBE
.end

**** 04/04/12 13:08:51 ******* PSpice 10.3.0 (Jan 2004) ******* ID# 1111111111 
 *Amplifier


 ****     MOSFET MODEL PARAMETERS


******************************************************************************




               nnMOS           ppMOS           
               NMOS            PMOS            
       LEVEL    2               2            
           L  100.000000E-06  100.000000E-06 
           W  100.000000E-06  100.000000E-06 
         VTO    1.4            -1            
          KP  600.000000E-06  600.000000E-06 
       GAMMA    0               0            
         PHI     .6              .6          
      LAMBDA    5.000000E-03     .01         
          IS   10.000000E-15   10.000000E-15 
          JS    0               0            
          PB     .8              .8          
        PBSW     .8              .8          
          CJ    0               0            
        CJSW    0               0            
        CGSO    0               0            
        CGDO    0               0            
        CGBO    0               0            
         TOX  100.000000E-09  100.000000E-09 
          XJ    0               0            
       UCRIT   10.000000E+03   10.000000E+03 
      DIOMOD    1               1            
         VFB    0               0            
        LETA    0               0            
        WETA    0               0            
          U0    0               0            
        TEMP    0               0            
         VDD    0               0            
       XPART    0               0            


**** 04/04/12 13:08:51 ******* PSpice 10.3.0 (Jan 2004) ******* ID# 1111111111 
 *Amplifier


 ****     SMALL SIGNAL BIAS SOLUTION       TEMPERATURE =   27.000 DEG C


******************************************************************************



 NODE   VOLTAGE     NODE   VOLTAGE     NODE   VOLTAGE     NODE   VOLTAGE


(    1)   17.0000  (    2)    0.0000  (    3)    5.0000  (    4)    3.8386      

(    5)    2.3109  




    VOLTAGE SOURCE CURRENTS
    NAME         CURRENT

    Vdd         -6.062E-04
    Vtr          0.000E+00

    TOTAL POWER DISSIPATION   1.03E-02  WATTS


**** 04/04/12 13:08:51 ******* PSpice 10.3.0 (Jan 2004) ******* ID# 1111111111 
 *Amplifier


 ****     INITIAL TRANSIENT SOLUTION       TEMPERATURE =   27.000 DEG C


******************************************************************************



 NODE   VOLTAGE     NODE   VOLTAGE     NODE   VOLTAGE     NODE   VOLTAGE


(    1)   17.0000  (    2)    0.0000  (    3)    5.0000  (    4)    3.8386      

(    5)    2.3109  




    VOLTAGE SOURCE CURRENTS
    NAME         CURRENT

    Vdd         -6.062E-04
    Vtr          0.000E+00

    TOTAL POWER DISSIPATION   1.03E-02  WATTS


**** 04/04/12 13:08:51 ******* PSpice 10.3.0 (Jan 2004) ******* ID# 1111111111 
 *Amplifier


 ****     TRANSIENT ANALYSIS               TEMPERATURE =   27.000 DEG C


******************************************************************************



  TIME        V(4,0)      
(*)----------    3.0000E+00   3.5000E+00   4.0000E+00   4.5000E+00   5.0000E+00
                       _ _ _ _ _ _ _ _ _ _ _ _ _ _ _ _ _ _ _ _ _ _ _ _ _ _ _
  0.000E+00  3.839E+00 .            .        *   .            .            .
  5.000E-04  3.842E+00 .            .        *   .            .            .
  1.000E-03  3.839E+00 .            .        *   .            .            .
  1.500E-03  3.836E+00 .            .        *   .            .            .
  2.000E-03  3.834E+00 .            .        *   .            .            .
  2.500E-03  3.831E+00 .            .        *   .            .            .
  3.000E-03  3.829E+00 .            .        *   .            .            .
  3.500E-03  3.826E+00 .            .       *    .            .            .
  4.000E-03  3.824E+00 .            .       *    .            .            .
  4.500E-03  3.822E+00 .            .       *    .            .            .
  5.000E-03  3.819E+00 .            .       *    .            .            .
  5.500E-03  3.817E+00 .            .       *    .            .            .
  6.000E-03  3.815E+00 .            .       *    .            .            .
  6.500E-03  3.813E+00 .            .       *    .            .            .
  7.000E-03  3.811E+00 .            .       *    .            .            .
  7.500E-03  3.809E+00 .            .       *    .            .            .
  8.000E-03  3.807E+00 .            .       *    .            .            .
  8.500E-03  3.805E+00 .            .       *    .            .            .
  9.000E-03  3.803E+00 .            .       *    .            .            .
  9.500E-03  3.801E+00 .            .       *    .            .            .
  1.000E-02  3.799E+00 .            .       *    .            .            .
  1.050E-02  3.797E+00 .            .       *    .            .            .
  1.100E-02  3.796E+00 .            .       *    .            .            .
  1.150E-02  3.794E+00 .            .       *    .            .            .
  1.200E-02  3.792E+00 .            .       *    .            .            .
  1.250E-02  3.791E+00 .            .       *    .            .            .
  1.300E-02  3.789E+00 .            .       *    .            .            .
  1.350E-02  3.788E+00 .            .      *     .            .            .
  1.400E-02  3.786E+00 .            .      *     .            .            .
  1.450E-02  3.785E+00 .            .      *     .            .            .
  1.500E-02  3.783E+00 .            .      *     .            .            .
  1.550E-02  3.782E+00 .            .      *     .            .            .
  1.600E-02  3.780E+00 .            .      *     .            .            .
  1.650E-02  3.779E+00 .            .      *     .            .            .
  1.700E-02  3.778E+00 .            .      *     .            .            .
  1.750E-02  3.777E+00 .            .      *     .            .            .
  1.800E-02  3.775E+00 .            .      *     .            .            .
  1.850E-02  3.774E+00 .            .      *     .            .            .
  1.900E-02  3.773E+00 .            .      *     .            .            .
  1.950E-02  3.772E+00 .            .      *     .            .            .
  2.000E-02  3.771E+00 .            .      *     .            .            .
  2.050E-02  3.770E+00 .            .      *     .            .            .
  2.100E-02  3.769E+00 .            .      *     .            .            .
  2.150E-02  3.767E+00 .            .      *     .            .            .
  2.200E-02  3.766E+00 .            .      *     .            .            .
  2.250E-02  3.765E+00 .            .      *     .            .            .
  2.300E-02  3.764E+00 .            .      *     .            .            .
  2.350E-02  3.764E+00 .            .      *     .            .            .
  2.400E-02  3.763E+00 .            .      *     .            .            .
  2.450E-02  3.762E+00 .            .      *     .            .            .
  2.500E-02  3.761E+00 .            .      *     .            .            .
  2.550E-02  3.760E+00 .            .      *     .            .            .
  2.600E-02  3.759E+00 .            .      *     .            .            .
  2.650E-02  3.758E+00 .            .      *     .            .            .
  2.700E-02  3.757E+00 .            .      *     .            .            .
  2.750E-02  3.757E+00 .            .      *     .            .            .
  2.800E-02  3.756E+00 .            .      *     .            .            .
  2.850E-02  3.755E+00 .            .      *     .            .            .
  2.900E-02  3.754E+00 .            .      *     .            .            .
  2.950E-02  3.754E+00 .            .      *     .            .            .
  3.000E-02  3.753E+00 .            .      *     .            .            .
  3.050E-02  3.752E+00 .            .      *     .            .            .
  3.100E-02  3.752E+00 .            .      *     .            .            .
  3.150E-02  3.751E+00 .            .      *     .            .            .
  3.200E-02  3.750E+00 .            .      *     .            .            .
  3.250E-02  3.750E+00 .            .     *      .            .            .
  3.300E-02  3.749E+00 .            .     *      .            .            .
  3.350E-02  3.748E+00 .            .     *      .            .            .
  3.400E-02  3.748E+00 .            .     *      .            .            .
  3.450E-02  3.747E+00 .            .     *      .            .            .
  3.500E-02  3.747E+00 .            .     *      .            .            .
  3.550E-02  3.748E+00 .            .     *      .            .            .
  3.600E-02  3.748E+00 .            .     *      .            .            .
  3.650E-02  3.748E+00 .            .     *      .            .            .
  3.700E-02  3.747E+00 .            .     *      .            .            .
  3.750E-02  3.747E+00 .            .     *      .            .            .
  3.800E-02  3.747E+00 .            .     *      .            .            .
  3.850E-02  3.747E+00 .            .     *      .            .            .
  3.900E-02  3.746E+00 .            .     *      .            .            .
  3.950E-02  3.746E+00 .            .     *      .            .            .
  4.000E-02  3.746E+00 .            .     *      .            .            .
  4.050E-02  3.746E+00 .            .     *      .            .            .
  4.100E-02  3.745E+00 .            .     *      .            .            .
  4.150E-02  3.745E+00 .            .     *      .            .            .
  4.200E-02  3.745E+00 .            .     *      .            .            .
  4.250E-02  3.745E+00 .            .     *      .            .            .
  4.300E-02  3.745E+00 .            .     *      .            .            .
  4.350E-02  3.745E+00 .            .     *      .            .            .
  4.400E-02  3.744E+00 .            .     *      .            .            .
  4.450E-02  3.744E+00 .            .     *      .            .            .
  4.500E-02  3.744E+00 .            .     *      .            .            .
  4.550E-02  3.744E+00 .            .     *      .            .            .
  4.600E-02  3.744E+00 .            .     *      .            .            .
  4.650E-02  3.744E+00 .            .     *      .            .            .
  4.700E-02  3.744E+00 .            .     *      .            .            .
  4.750E-02  3.743E+00 .            .     *      .            .            .
  4.800E-02  3.743E+00 .            .     *      .            .            .
  4.850E-02  3.743E+00 .            .     *      .            .            .
  4.900E-02  3.743E+00 .            .     *      .            .            .
  4.950E-02  3.743E+00 .            .     *      .            .            .
  5.000E-02  3.743E+00 .            .     *      .            .            .
  5.050E-02  3.743E+00 .            .     *      .            .            .
  5.100E-02  3.742E+00 .            .     *      .            .            .
  5.150E-02  3.742E+00 .            .     *      .            .            .
  5.200E-02  3.742E+00 .            .     *      .            .            .
  5.250E-02  3.742E+00 .            .     *      .            .            .
  5.300E-02  3.742E+00 .            .     *      .            .            .
  5.350E-02  3.742E+00 .            .     *      .            .            .
  5.400E-02  3.742E+00 .            .     *      .            .            .
  5.450E-02  3.742E+00 .            .     *      .            .            .
  5.500E-02  3.742E+00 .            .     *      .            .            .
  5.550E-02  3.741E+00 .            .     *      .            .            .
  5.600E-02  3.741E+00 .            .     *      .            .            .
  5.650E-02  3.741E+00 .            .     *      .            .            .
  5.700E-02  3.741E+00 .            .     *      .            .            .
  5.750E-02  3.741E+00 .            .     *      .            .            .
  5.800E-02  3.741E+00 .            .     *      .            .            .
  5.850E-02  3.741E+00 .            .     *      .            .            .
  5.900E-02  3.741E+00 .            .     *      .            .            .
  5.950E-02  3.741E+00 .            .     *      .            .            .
  6.000E-02  3.741E+00 .            .     *      .            .            .
  6.050E-02  3.741E+00 .            .     *      .            .            .
  6.100E-02  3.740E+00 .            .     *      .            .            .
  6.150E-02  3.740E+00 .            .     *      .            .            .
  6.200E-02  3.740E+00 .            .     *      .            .            .
  6.250E-02  3.740E+00 .            .     *      .            .            .
  6.300E-02  3.740E+00 .            .     *      .            .            .
  6.350E-02  3.740E+00 .            .     *      .            .            .
  6.400E-02  3.740E+00 .            .     *      .            .            .
  6.450E-02  3.740E+00 .            .     *      .            .            .
  6.500E-02  3.740E+00 .            .     *      .            .            .
  6.550E-02  3.740E+00 .            .     *      .            .            .
  6.600E-02  3.740E+00 .            .     *      .            .            .
  6.650E-02  3.740E+00 .            .     *      .            .            .
  6.700E-02  3.740E+00 .            .     *      .            .            .
  6.750E-02  3.740E+00 .            .     *      .            .            .
  6.800E-02  3.740E+00 .            .     *      .            .            .
  6.850E-02  3.740E+00 .            .     *      .            .            .
  6.900E-02  3.740E+00 .            .     *      .            .            .
  6.950E-02  3.739E+00 .            .     *      .            .            .
  7.000E-02  3.739E+00 .            .     *      .            .            .
  7.050E-02  3.739E+00 .            .     *      .            .            .
  7.100E-02  3.739E+00 .            .     *      .            .            .
  7.150E-02  3.739E+00 .            .     *      .            .            .
  7.200E-02  3.739E+00 .            .     *      .            .            .
  7.250E-02  3.739E+00 .            .     *      .            .            .
  7.300E-02  3.739E+00 .            .     *      .            .            .
  7.350E-02  3.739E+00 .            .     *      .            .            .
  7.400E-02  3.739E+00 .            .     *      .            .            .
  7.450E-02  3.739E+00 .            .     *      .            .            .
  7.500E-02  3.739E+00 .            .     *      .            .            .
  7.550E-02  3.739E+00 .            .     *      .            .            .
  7.600E-02  3.739E+00 .            .     *      .            .            .
  7.650E-02  3.739E+00 .            .     *      .            .            .
  7.700E-02  3.739E+00 .            .     *      .            .            .
  7.750E-02  3.739E+00 .            .     *      .            .            .
  7.800E-02  3.739E+00 .            .     *      .            .            .
  7.850E-02  3.739E+00 .            .     *      .            .            .
  7.900E-02  3.739E+00 .            .     *      .            .            .
  7.950E-02  3.739E+00 .            .     *      .            .            .
  8.000E-02  3.739E+00 .            .     *      .            .            .
  8.050E-02  3.739E+00 .            .     *      .            .            .
  8.100E-02  3.739E+00 .            .     *      .            .            .
  8.150E-02  3.739E+00 .            .     *      .            .            .
  8.200E-02  3.739E+00 .            .     *      .            .            .
  8.250E-02  3.739E+00 .            .     *      .            .            .
  8.300E-02  3.739E+00 .            .     *      .            .            .
  8.350E-02  3.739E+00 .            .     *      .            .            .
  8.400E-02  3.738E+00 .            .     *      .            .            .
  8.450E-02  3.738E+00 .            .     *      .            .            .
  8.500E-02  3.738E+00 .            .     *      .            .            .
  8.550E-02  3.738E+00 .            .     *      .            .            .
  8.600E-02  3.738E+00 .            .     *      .            .            .
  8.650E-02  3.738E+00 .            .     *      .            .            .
  8.700E-02  3.738E+00 .            .     *      .            .            .
  8.750E-02  3.738E+00 .            .     *      .            .            .
  8.800E-02  3.738E+00 .            .     *      .            .            .
  8.850E-02  3.738E+00 .            .     *      .            .            .
  8.900E-02  3.738E+00 .            .     *      .            .            .
  8.950E-02  3.738E+00 .            .     *      .            .            .
  9.000E-02  3.738E+00 .            .     *      .            .            .
  9.050E-02  3.738E+00 .            .     *      .            .            .
  9.100E-02  3.738E+00 .            .     *      .            .            .
  9.150E-02  3.738E+00 .            .     *      .            .            .
  9.200E-02  3.738E+00 .            .     *      .            .            .
  9.250E-02  3.738E+00 .            .     *      .            .            .
  9.300E-02  3.738E+00 .            .     *      .            .            .
  9.350E-02  3.738E+00 .            .     *      .            .            .
  9.400E-02  3.738E+00 .            .     *      .            .            .
  9.450E-02  3.738E+00 .            .     *      .            .            .
  9.500E-02  3.738E+00 .            .     *      .            .            .
  9.550E-02  3.738E+00 .            .     *      .            .            .
  9.600E-02  3.738E+00 .            .     *      .            .            .
  9.650E-02  3.738E+00 .            .     *      .            .            .
  9.700E-02  3.738E+00 .            .     *      .            .            .
  9.750E-02  3.738E+00 .            .     *      .            .            .
  9.800E-02  3.738E+00 .            .     *      .            .            .
  9.850E-02  3.738E+00 .            .     *      .            .            .
  9.900E-02  3.738E+00 .            .     *      .            .            .
  9.950E-02  3.738E+00 .            .     *      .            .            .
  1.000E-01  3.746E+00 .            .     *      .            .            .
                       - - - - - - - - - - - - - - - - - - - - - - - - - - - 




          JOB CONCLUDED

**** 04/04/12 13:08:51 ******* PSpice 10.3.0 (Jan 2004) ******* ID# 1111111111 
 *Amplifier


